
T4838 000:467 SEGGER J-Link V4.80g Log File (0000ms, 0265ms total)
T4838 000:467 DLL Compiled: Feb 13 2014 20:50:02 (0000ms, 0265ms total)
T4838 000:467 Logging started @ 2017-10-01 13:23 (0000ms, 0265ms total)
T4838 000:467 JLINK_SetWarnOutHandler(...) (0000ms, 0265ms total)
T4838 000:467 JLINK_OpenEx(...)
Firmware: Energy Micro EFM32 compiled Nov 13 2013 12:57:45
Hardware: V7.00
S/N: 440078441
Feature(s): GDB  returns O.K. (0263ms, 0528ms total)
T4838 000:730 JLINK_SetErrorOutHandler(...) (0000ms, 0528ms total)
T4838 000:730 JLINK_ExecCommand("ProjectFile = "D:\Firmware-Projects\STK3700\RTOS-TEST\RTOS-TEST\uv4\JLinkSettings.ini"", ...)  returns 0x00 (0000ms, 0528ms total)
T4838 000:734 JLINK_ExecCommand("Device = EFM32GG980F1024", ...)Device "EFM32GG980F1024" selected (1026 KB flash, 128 KB RAM).  returns 0x00 (0006ms, 0534ms total)
T4838 000:740 JLINK_ExecCommand("DisableConnectionTimeout", ...)  returns 0x01 (0000ms, 0534ms total)
T4838 000:740 JLINK_GetHardwareVersion()  returns 0x11170 (0000ms, 0534ms total)
T4838 000:740 JLINK_GetDLLVersion()  returns 48007 (0000ms, 0534ms total)
T4838 000:740 JLINK_GetFirmwareString(...) (0000ms, 0534ms total)
T4838 000:750 JLINK_GetDLLVersion()  returns 48007 (0000ms, 0534ms total)
T4838 000:750 JLINK_GetCompileDateTime() (0000ms, 0534ms total)
T4838 000:752 JLINK_GetFirmwareString(...) (0000ms, 0534ms total)
T4838 000:754 JLINK_GetHardwareVersion()  returns 0x11170 (0000ms, 0534ms total)
T4838 000:763 JLINK_TIF_Select(JLINKARM_TIF_SWD)  returns 0x00 (0001ms, 0535ms total)
T4838 000:764 JLINK_SetSpeed(2000) (0001ms, 0536ms total)
T4838 000:765 JLINK_GetId() >0x108 TIF>Found SWD-DP with ID 0x2BA01477 >0x0D TIF> >0x21 TIF> >0x0D TIF> >0x28 TIF> >0x0D TIF> >0x28 TIF> >0x0D TIF> >0x21 TIF> >0x0D TIF> >0x28 TIF> >0x0D TIF> >0x21 TIF> >0x0D TIF> >0x21 TIF> >0x0D TIF> >0x21 TIF> >0x0D TIF> >0x28 TIF> >0x0D TIF> >0x21 TIF> >0x0D TIF> >0x28 TIF> >0x0D TIF> >0x28 TIF> >0x0D TIF> >0x21 TIF> >0x0D TIF> >0x28 TIF> >0x0D TIF> >0x28 TIF> >0x0D TIF> >0x28 TIF> >0x0D TIF> >0x21 TIF> >0x0D TIF> >0x21 TIF> >0x0D TIF> >0x28 TIF> >0x0D TIF>
 >0x21 TIF> >0x0D TIF> >0x21 TIF>Found Cortex-M3 r2p1, Little endian. >0x0D TIF> >0x28 TIF> -- CPU_WriteMem(4 bytes @ 0xE0002000) -- CPU_ReadMem(4 bytes @ 0xE000EDF0) -- CPU_ReadMem(4 bytes @ 0xE0002000)FPUnit: 6 code (BP) slots and 2 literal slots -- CPU_ReadMem(4 bytes @ 0xE000EDFC) -- CPU_ReadMem(4 bytes @ 0xE0001000) -- CPU_WriteMem(4 bytes @ 0xE0001000) -- CPU_ReadMem(4 bytes @ 0xE00FF010)TPIU fitted. -- CPU_ReadMem(4 bytes @ 0xE00FF014)ETM fitted. -- CPU_ReadMem(4 bytes @ 0xE00FF018) >0x0D TIF>
 >0x21 TIF>  returns 0x2BA01477 (0042ms, 0578ms total)
T4838 000:807 JLINK_GetDeviceFamily()  returns 3 (0000ms, 0578ms total)
T4838 000:809 JLINK_ReadMem (0xE00FFFF0, 0x0010 Bytes, ...) -- CPU is running -- CPU_ReadMem(16 bytes @ 0xE00FFFF0) -- Data:  0D 00 00 00 10 00 00 00 05 00 00 00 B1 00 00 00  returns 0x00 (0001ms, 0579ms total)
T4838 000:810 JLINK_ReadMem (0xE00FFFD0, 0x0020 Bytes, ...) -- CPU is running -- CPU_ReadMem(32 bytes @ 0xE00FFFD0) -- Data:  06 00 00 00 00 00 00 00 00 00 00 00 00 00 00 00 ...  returns 0x00 (0001ms, 0580ms total)
T4838 000:811 JLINK_ReadMem (0xE00FF000, 0x0018 Bytes, ...) -- CPU is running -- CPU_ReadMem(24 bytes @ 0xE00FF000) -- Data:  03 F0 F0 FF 03 20 F0 FF 03 30 F0 FF 03 10 F0 FF ...  returns 0x00 (0001ms, 0581ms total)
T4838 000:812 JLINK_ReadMemU32(0xE000ED00, 0x0001 Items, ...) -- CPU is running -- CPU_ReadMem(4 bytes @ 0xE000ED00) -- Data:  31 C2 2F 41  returns 0x01 (0001ms, 0582ms total)
T4838 000:813 JLINK_SetResetType(JLINKARM_RESET_TYPE_NORMAL)  returns JLINKARM_RESET_TYPE_NORMAL (0000ms, 0582ms total)
T4838 000:813 JLINK_Reset() -- CPU_WriteMem(4 bytes @ 0xE0002000) -- CPU_ReadMem(4 bytes @ 0xE000EDFC) -- CPU_WriteMem(4 bytes @ 0xE000EDFC) -- CPU_ReadMem(4 bytes @ 0xE0001000) (0015ms, 0597ms total)
T4838 000:828 JLINK_Halt()  returns 0x00 (0000ms, 0597ms total)
T4838 000:828 JLINK_IsHalted()  returns TRUE (0000ms, 0597ms total)
T4838 000:828 JLINK_ReadMemU32(0xE000EDF0, 0x0001 Items, ...) -- CPU_ReadMem(4 bytes @ 0xE000EDF0) -- Data:  03 00 03 00  returns 0x01 (0000ms, 0597ms total)
T4838 000:828 JLINK_WriteU32(0xE000EDF0, 0xA05F0003) -- CPU_WriteMem(4 bytes @ 0xE000EDF0)  returns 0x00 (0001ms, 0598ms total)
T4838 000:829 JLINK_WriteU32(0xE000EDFC, 0x01000000) -- CPU_WriteMem(4 bytes @ 0xE000EDFC)  returns 0x00 (0001ms, 0599ms total)
T4838 000:838 JLINK_GetHWStatus(...)  returns 0x00 (0000ms, 0599ms total)
T4838 000:845 JLINK_GetNumBPUnits(Type = 0xFFFFFF00)  returns 0x06 (0000ms, 0599ms total)
T4838 000:845 JLINK_GetNumBPUnits(Type = 0xF0)  returns 0x2000 (0000ms, 0599ms total)
T4838 000:845 JLINK_GetNumWPUnits()  returns 0x04 (0000ms, 0599ms total)
T4838 000:851 JLINK_GetSpeed()  returns 0x7D0 (0000ms, 0599ms total)
T4838 000:855 JLINK_ReadMemU32(0xE000E004, 0x0001 Items, ...) -- CPU_ReadMem(4 bytes @ 0xE000E004) -- Data:  01 00 00 00  returns 0x01 (0000ms, 0599ms total)
T4838 000:855 JLINK_ReadMemU32(0xE000E004, 0x0001 Items, ...) -- CPU_ReadMem(4 bytes @ 0xE000E004) -- Data:  01 00 00 00  returns 0x01 (0001ms, 0600ms total)
T4838 000:856 JLINK_WriteMem(0xE0001000, 0x001C Bytes, ...) -- Data:  01 00 00 00 00 00 00 00 00 00 00 00 00 00 00 00 ... -- CPU_WriteMem(28 bytes @ 0xE0001000)  returns 0x1C (0001ms, 0601ms total)
T4838 000:857 JLINK_ReadMem (0xE0001000, 0x001C Bytes, ...) -- CPU_ReadMem(28 bytes @ 0xE0001000) -- Data:  01 00 00 40 00 00 00 00 00 00 00 00 00 00 00 00 ...  returns 0x00 (0000ms, 0601ms total)
T4838 000:857 JLINK_Halt()  returns 0x00 (0001ms, 0602ms total)
T4838 000:858 JLINK_IsHalted()  returns TRUE (0000ms, 0602ms total)
T4838 000:861 JLINK_WriteMem(0x10000000, 0x0228 Bytes, ...) -- Data:  00 BE 0A E0 0D 78 2D 06 68 40 08 24 40 00 00 D3 ... -- CPU_WriteMem(552 bytes @ 0x10000000)  returns 0x228 (0006ms, 0608ms total)
T4838 000:867 JLINK_WriteReg(R0, 0x00000000)  returns 0x00 (0000ms, 0608ms total)
T4838 000:867 JLINK_WriteReg(R1, 0x02DC6C00)  returns 0x00 (0000ms, 0608ms total)
T4838 000:867 JLINK_WriteReg(R2, 0x00000001)  returns 0x00 (0000ms, 0608ms total)
T4838 000:867 JLINK_WriteReg(R3, 0x00000000)  returns 0x00 (0000ms, 0608ms total)
T4838 000:867 JLINK_WriteReg(R4, 0x00000000)  returns 0x00 (0000ms, 0608ms total)
T4838 000:867 JLINK_WriteReg(R5, 0x00000000)  returns 0x00 (0000ms, 0608ms total)
T4838 000:867 JLINK_WriteReg(R6, 0x00000000)  returns 0x00 (0000ms, 0608ms total)
T4838 000:867 JLINK_WriteReg(R7, 0x00000000)  returns 0x00 (0000ms, 0608ms total)
T4838 000:867 JLINK_WriteReg(R8, 0x00000000)  returns 0x00 (0000ms, 0608ms total)
T4838 000:867 JLINK_WriteReg(R9, 0x10000224)  returns 0x00 (0000ms, 0608ms total)
T4838 000:867 JLINK_WriteReg(R10, 0x00000000)  returns 0x00 (0000ms, 0608ms total)
T4838 000:867 JLINK_WriteReg(R11, 0x00000000)  returns 0x00 (0000ms, 0608ms total)
T4838 000:867 JLINK_WriteReg(R12, 0x00000000)  returns 0x00 (0000ms, 0608ms total)
T4838 000:867 JLINK_WriteReg(R13 (SP), 0x10008000)  returns 0x00 (0000ms, 0608ms total)
T4838 000:867 JLINK_WriteReg(R14, 0x10000001)  returns 0x00 (0000ms, 0608ms total)
T4838 000:867 JLINK_WriteReg(R15 (PC), 0x10000080)  returns 0x00 (0000ms, 0608ms total)
T4838 000:867 JLINK_WriteReg(XPSR, 0x01000000)  returns 0x00 (0000ms, 0608ms total)
T4838 000:867 JLINK_WriteReg(MSP, 0x10008000)  returns 0x00 (0000ms, 0608ms total)
T4838 000:867 JLINK_WriteReg(PSP, 0x10008000)  returns 0x00 (0000ms, 0608ms total)
T4838 000:867 JLINK_WriteReg(CFBP, 0x00000000)  returns 0x00 (0000ms, 0608ms total)
T4838 000:867 JLINK_SetBPEx(Addr = 0x10000000, Type = 0xFFFFFFF2)  returns 0x00000001 (0000ms, 0608ms total)
T4838 000:867 JLINK_Go() -- CPU_WriteMem(4 bytes @ 0xE0002000) -- CPU_WriteMem(4 bytes @ 0xE0002008) -- CPU_WriteMem(4 bytes @ 0xE000200C) -- CPU_WriteMem(4 bytes @ 0xE0002010) -- CPU_WriteMem(4 bytes @ 0xE0002014) -- CPU_WriteMem(4 bytes @ 0xE0002018) -- CPU_WriteMem(4 bytes @ 0xE000201C) -- CPU_WriteMem(4 bytes @ 0xE0001004) (0008ms, 0616ms total)
T4838 000:875 JLINK_IsHalted()  returns TRUE (0005ms, 0621ms total)
T4838 000:880 JLINK_ReadReg(R15 (PC))  returns 0x10000000 (0000ms, 0616ms total)
T4838 000:880 JLINK_ClrBPEx(BPHandle = 0x00000001)  returns 0x00 (0000ms, 0616ms total)
T4838 000:880 JLINK_ReadReg(R0)  returns 0x00000000 (0000ms, 0616ms total)
T4838 000:880 JLINK_WriteReg(R0, 0x00000000)  returns 0x00 (0000ms, 0616ms total)
T4838 000:880 JLINK_WriteReg(R1, 0x00001000)  returns 0x00 (0000ms, 0616ms total)
T4838 000:880 JLINK_WriteReg(R2, 0x000000FF)  returns 0x00 (0000ms, 0616ms total)
T4838 000:880 JLINK_WriteReg(R3, 0x00000000)  returns 0x00 (0000ms, 0616ms total)
T4838 000:880 JLINK_WriteReg(R4, 0x00000000)  returns 0x00 (0000ms, 0616ms total)
T4838 000:880 JLINK_WriteReg(R5, 0x00000000)  returns 0x00 (0000ms, 0616ms total)
T4838 000:880 JLINK_WriteReg(R6, 0x00000000)  returns 0x00 (0000ms, 0616ms total)
T4838 000:880 JLINK_WriteReg(R7, 0x00000000)  returns 0x00 (0000ms, 0616ms total)
T4838 000:880 JLINK_WriteReg(R8, 0x00000000)  returns 0x00 (0000ms, 0616ms total)
T4838 000:880 JLINK_WriteReg(R9, 0x10000224)  returns 0x00 (0000ms, 0616ms total)
T4838 000:880 JLINK_WriteReg(R10, 0x00000000)  returns 0x00 (0000ms, 0616ms total)
T4838 000:880 JLINK_WriteReg(R11, 0x00000000)  returns 0x00 (0000ms, 0616ms total)
T4838 000:880 JLINK_WriteReg(R12, 0x00000000)  returns 0x00 (0000ms, 0616ms total)
T4838 000:880 JLINK_WriteReg(R13 (SP), 0x10008000)  returns 0x00 (0000ms, 0616ms total)
T4838 000:880 JLINK_WriteReg(R14, 0x10000001)  returns 0x00 (0000ms, 0616ms total)
T4838 000:880 JLINK_WriteReg(R15 (PC), 0x10000020)  returns 0x00 (0000ms, 0616ms total)
T4838 000:880 JLINK_WriteReg(XPSR, 0x01000000)  returns 0x00 (0000ms, 0616ms total)
T4838 000:880 JLINK_WriteReg(MSP, 0x10008000)  returns 0x00 (0000ms, 0616ms total)
T4838 000:880 JLINK_WriteReg(PSP, 0x10008000)  returns 0x00 (0000ms, 0616ms total)
T4838 000:880 JLINK_WriteReg(CFBP, 0x00000000)  returns 0x00 (0000ms, 0616ms total)
T4838 000:880 JLINK_SetBPEx(Addr = 0x10000000, Type = 0xFFFFFFF2)  returns 0x00000002 (0000ms, 0616ms total)
T4838 000:880 JLINK_Go() -- CPU_WriteMem(4 bytes @ 0xE0002000) (0003ms, 0619ms total)
T4838 000:883 JLINK_IsHalted()  returns TRUE (0005ms, 0624ms total)
T4838 000:888 JLINK_ReadReg(R15 (PC))  returns 0x10000000 (0000ms, 0619ms total)
T4838 000:888 JLINK_ClrBPEx(BPHandle = 0x00000002)  returns 0x00 (0000ms, 0619ms total)
T4838 000:888 JLINK_ReadReg(R0)  returns 0x00000001 (0000ms, 0619ms total)
T4838 000:888 JLINK_WriteReg(R0, 0x00000000)  returns 0x00 (0000ms, 0619ms total)
T4838 000:888 JLINK_WriteReg(R1, 0x00001000)  returns 0x00 (0000ms, 0619ms total)
T4838 000:888 JLINK_WriteReg(R2, 0x000000FF)  returns 0x00 (0000ms, 0619ms total)
T4838 000:888 JLINK_WriteReg(R3, 0x00000000)  returns 0x00 (0000ms, 0619ms total)
T4838 000:888 JLINK_WriteReg(R4, 0x00000000)  returns 0x00 (0000ms, 0619ms total)
T4838 000:888 JLINK_WriteReg(R5, 0x00000000)  returns 0x00 (0000ms, 0619ms total)
T4838 000:888 JLINK_WriteReg(R6, 0x00000000)  returns 0x00 (0000ms, 0619ms total)
T4838 000:888 JLINK_WriteReg(R7, 0x00000000)  returns 0x00 (0000ms, 0619ms total)
T4838 000:888 JLINK_WriteReg(R8, 0x00000000)  returns 0x00 (0000ms, 0619ms total)
T4838 000:888 JLINK_WriteReg(R9, 0x10000224)  returns 0x00 (0000ms, 0619ms total)
T4838 000:888 JLINK_WriteReg(R10, 0x00000000)  returns 0x00 (0000ms, 0619ms total)
T4838 000:888 JLINK_WriteReg(R11, 0x00000000)  returns 0x00 (0000ms, 0619ms total)
T4838 000:888 JLINK_WriteReg(R12, 0x00000000)  returns 0x00 (0000ms, 0619ms total)
T4838 000:888 JLINK_WriteReg(R13 (SP), 0x10008000)  returns 0x00 (0000ms, 0619ms total)
T4838 000:888 JLINK_WriteReg(R14, 0x10000001)  returns 0x00 (0000ms, 0619ms total)
T4838 000:888 JLINK_WriteReg(R15 (PC), 0x100000C8)  returns 0x00 (0000ms, 0619ms total)
T4838 000:888 JLINK_WriteReg(XPSR, 0x01000000)  returns 0x00 (0000ms, 0619ms total)
T4838 000:888 JLINK_WriteReg(MSP, 0x10008000)  returns 0x00 (0000ms, 0619ms total)
T4838 000:888 JLINK_WriteReg(PSP, 0x10008000)  returns 0x00 (0000ms, 0619ms total)
T4838 000:888 JLINK_WriteReg(CFBP, 0x00000000)  returns 0x00 (0000ms, 0619ms total)
T4838 000:888 JLINK_SetBPEx(Addr = 0x10000000, Type = 0xFFFFFFF2)  returns 0x00000003 (0000ms, 0619ms total)
T4838 000:888 JLINK_Go() -- CPU_WriteMem(4 bytes @ 0xE0002000) (0003ms, 0622ms total)
T4838 000:891 JLINK_IsHalted()  returns FALSE (0000ms, 0622ms total)
T4838 000:954 JLINK_IsHalted()  returns TRUE (0004ms, 0626ms total)
T4838 000:958 JLINK_ReadReg(R15 (PC))  returns 0x10000000 (0000ms, 0622ms total)
T4838 000:958 JLINK_ClrBPEx(BPHandle = 0x00000003)  returns 0x00 (0000ms, 0622ms total)
T4838 000:958 JLINK_ReadReg(R0)  returns 0x00000000 (0000ms, 0622ms total)
T4838 000:959 JLINK_WriteReg(R0, 0x00001000)  returns 0x00 (0000ms, 0622ms total)
T4838 000:959 JLINK_WriteReg(R1, 0x00001000)  returns 0x00 (0000ms, 0622ms total)
T4838 000:959 JLINK_WriteReg(R2, 0x000000FF)  returns 0x00 (0000ms, 0622ms total)
T4838 000:959 JLINK_WriteReg(R3, 0x00000000)  returns 0x00 (0000ms, 0622ms total)
T4838 000:959 JLINK_WriteReg(R4, 0x00000000)  returns 0x00 (0000ms, 0622ms total)
T4838 000:959 JLINK_WriteReg(R5, 0x00000000)  returns 0x00 (0000ms, 0622ms total)
T4838 000:959 JLINK_WriteReg(R6, 0x00000000)  returns 0x00 (0000ms, 0622ms total)
T4838 000:959 JLINK_WriteReg(R7, 0x00000000)  returns 0x00 (0000ms, 0622ms total)
T4838 000:959 JLINK_WriteReg(R8, 0x00000000)  returns 0x00 (0000ms, 0622ms total)
T4838 000:959 JLINK_WriteReg(R9, 0x10000224)  returns 0x00 (0000ms, 0622ms total)
T4838 000:959 JLINK_WriteReg(R10, 0x00000000)  returns 0x00 (0000ms, 0622ms total)
T4838 000:959 JLINK_WriteReg(R11, 0x00000000)  returns 0x00 (0000ms, 0622ms total)
T4838 000:959 JLINK_WriteReg(R12, 0x00000000)  returns 0x00 (0000ms, 0622ms total)
T4838 000:959 JLINK_WriteReg(R13 (SP), 0x10008000)  returns 0x00 (0000ms, 0622ms total)
T4838 000:959 JLINK_WriteReg(R14, 0x10000001)  returns 0x00 (0000ms, 0622ms total)
T4838 000:959 JLINK_WriteReg(R15 (PC), 0x10000020)  returns 0x00 (0000ms, 0622ms total)
T4838 000:959 JLINK_WriteReg(XPSR, 0x01000000)  returns 0x00 (0000ms, 0622ms total)
T4838 000:959 JLINK_WriteReg(MSP, 0x10008000)  returns 0x00 (0000ms, 0622ms total)
T4838 000:959 JLINK_WriteReg(PSP, 0x10008000)  returns 0x00 (0000ms, 0622ms total)
T4838 000:959 JLINK_WriteReg(CFBP, 0x00000000)  returns 0x00 (0000ms, 0622ms total)
T4838 000:959 JLINK_SetBPEx(Addr = 0x10000000, Type = 0xFFFFFFF2)  returns 0x00000004 (0000ms, 0622ms total)
T4838 000:959 JLINK_Go() -- CPU_WriteMem(4 bytes @ 0xE0002000) (0003ms, 0625ms total)
T4838 000:962 JLINK_IsHalted()  returns TRUE (0004ms, 0629ms total)
T4838 000:966 JLINK_ReadReg(R15 (PC))  returns 0x10000000 (0000ms, 0625ms total)
T4838 000:966 JLINK_ClrBPEx(BPHandle = 0x00000004)  returns 0x00 (0000ms, 0625ms total)
T4838 000:966 JLINK_ReadReg(R0)  returns 0x00000001 (0000ms, 0625ms total)
T4838 000:966 JLINK_WriteReg(R0, 0x00001000)  returns 0x00 (0000ms, 0625ms total)
T4838 000:966 JLINK_WriteReg(R1, 0x00001000)  returns 0x00 (0000ms, 0625ms total)
T4838 000:966 JLINK_WriteReg(R2, 0x000000FF)  returns 0x00 (0000ms, 0625ms total)
T4838 000:966 JLINK_WriteReg(R3, 0x00000000)  returns 0x00 (0000ms, 0625ms total)
T4838 000:966 JLINK_WriteReg(R4, 0x00000000)  returns 0x00 (0000ms, 0625ms total)
T4838 000:966 JLINK_WriteReg(R5, 0x00000000)  returns 0x00 (0000ms, 0625ms total)
T4838 000:966 JLINK_WriteReg(R6, 0x00000000)  returns 0x00 (0000ms, 0625ms total)
T4838 000:966 JLINK_WriteReg(R7, 0x00000000)  returns 0x00 (0000ms, 0625ms total)
T4838 000:966 JLINK_WriteReg(R8, 0x00000000)  returns 0x00 (0000ms, 0625ms total)
T4838 000:966 JLINK_WriteReg(R9, 0x10000224)  returns 0x00 (0000ms, 0625ms total)
T4838 000:966 JLINK_WriteReg(R10, 0x00000000)  returns 0x00 (0000ms, 0625ms total)
T4838 000:966 JLINK_WriteReg(R11, 0x00000000)  returns 0x00 (0001ms, 0626ms total)
T4838 000:967 JLINK_WriteReg(R12, 0x00000000)  returns 0x00 (0000ms, 0626ms total)
T4838 000:967 JLINK_WriteReg(R13 (SP), 0x10008000)  returns 0x00 (0000ms, 0626ms total)
T4838 000:967 JLINK_WriteReg(R14, 0x10000001)  returns 0x00 (0000ms, 0626ms total)
T4838 000:967 JLINK_WriteReg(R15 (PC), 0x100000C8)  returns 0x00 (0000ms, 0626ms total)
T4838 000:967 JLINK_WriteReg(XPSR, 0x01000000)  returns 0x00 (0000ms, 0626ms total)
T4838 000:967 JLINK_WriteReg(MSP, 0x10008000)  returns 0x00 (0000ms, 0626ms total)
T4838 000:967 JLINK_WriteReg(PSP, 0x10008000)  returns 0x00 (0000ms, 0626ms total)
T4838 000:967 JLINK_WriteReg(CFBP, 0x00000000)  returns 0x00 (0000ms, 0626ms total)
T4838 000:967 JLINK_SetBPEx(Addr = 0x10000000, Type = 0xFFFFFFF2)  returns 0x00000005 (0000ms, 0626ms total)
T4838 000:967 JLINK_Go() -- CPU_WriteMem(4 bytes @ 0xE0002000) (0002ms, 0628ms total)
T4838 000:969 JLINK_IsHalted()  returns FALSE (0001ms, 0629ms total)
T4838 000:972 JLINK_IsHalted()  returns FALSE (0000ms, 0628ms total)
T4838 000:974 JLINK_IsHalted()  returns FALSE (0000ms, 0628ms total)
T4838 000:976 JLINK_IsHalted()  returns FALSE (0000ms, 0628ms total)
T4838 000:978 JLINK_IsHalted()  returns FALSE (0000ms, 0628ms total)
T4838 000:980 JLINK_IsHalted()  returns FALSE (0000ms, 0628ms total)
T4838 000:982 JLINK_IsHalted()  returns FALSE (0000ms, 0628ms total)
T4838 000:984 JLINK_IsHalted()  returns FALSE (0000ms, 0628ms total)
T4838 000:986 JLINK_IsHalted()  returns FALSE (0000ms, 0628ms total)
T4838 000:988 JLINK_IsHalted()  returns FALSE (0000ms, 0628ms total)
T4838 000:990 JLINK_IsHalted()  returns FALSE (0000ms, 0628ms total)
T4838 000:992 JLINK_IsHalted()  returns FALSE (0000ms, 0628ms total)
T4838 000:994 JLINK_IsHalted()  returns TRUE (0004ms, 0632ms total)
T4838 000:998 JLINK_ReadReg(R15 (PC))  returns 0x10000000 (0000ms, 0628ms total)
T4838 000:998 JLINK_ClrBPEx(BPHandle = 0x00000005)  returns 0x00 (0000ms, 0628ms total)
T4838 000:998 JLINK_ReadReg(R0)  returns 0x00000000 (0000ms, 0628ms total)
T4838 000:998 JLINK_WriteReg(R0, 0x00002000)  returns 0x00 (0000ms, 0628ms total)
T4838 000:998 JLINK_WriteReg(R1, 0x00001000)  returns 0x00 (0000ms, 0628ms total)
T4838 000:998 JLINK_WriteReg(R2, 0x000000FF)  returns 0x00 (0000ms, 0628ms total)
T4838 000:998 JLINK_WriteReg(R3, 0x00000000)  returns 0x00 (0000ms, 0628ms total)
T4838 000:998 JLINK_WriteReg(R4, 0x00000000)  returns 0x00 (0000ms, 0628ms total)
T4838 000:998 JLINK_WriteReg(R5, 0x00000000)  returns 0x00 (0000ms, 0628ms total)
T4838 000:998 JLINK_WriteReg(R6, 0x00000000)  returns 0x00 (0000ms, 0628ms total)
T4838 000:998 JLINK_WriteReg(R7, 0x00000000)  returns 0x00 (0000ms, 0628ms total)
T4838 000:998 JLINK_WriteReg(R8, 0x00000000)  returns 0x00 (0000ms, 0628ms total)
T4838 000:998 JLINK_WriteReg(R9, 0x10000224)  returns 0x00 (0000ms, 0628ms total)
T4838 000:998 JLINK_WriteReg(R10, 0x00000000)  returns 0x00 (0000ms, 0628ms total)
T4838 000:998 JLINK_WriteReg(R11, 0x00000000)  returns 0x00 (0000ms, 0628ms total)
T4838 000:998 JLINK_WriteReg(R12, 0x00000000)  returns 0x00 (0000ms, 0628ms total)
T4838 000:998 JLINK_WriteReg(R13 (SP), 0x10008000)  returns 0x00 (0000ms, 0628ms total)
T4838 000:998 JLINK_WriteReg(R14, 0x10000001)  returns 0x00 (0000ms, 0628ms total)
T4838 000:998 JLINK_WriteReg(R15 (PC), 0x10000020)  returns 0x00 (0001ms, 0629ms total)
T4838 000:999 JLINK_WriteReg(XPSR, 0x01000000)  returns 0x00 (0000ms, 0629ms total)
T4838 000:999 JLINK_WriteReg(MSP, 0x10008000)  returns 0x00 (0000ms, 0629ms total)
T4838 000:999 JLINK_WriteReg(PSP, 0x10008000)  returns 0x00 (0000ms, 0629ms total)
T4838 000:999 JLINK_WriteReg(CFBP, 0x00000000)  returns 0x00 (0000ms, 0629ms total)
T4838 000:999 JLINK_SetBPEx(Addr = 0x10000000, Type = 0xFFFFFFF2)  returns 0x00000006 (0000ms, 0629ms total)
T4838 000:999 JLINK_Go() -- CPU_WriteMem(4 bytes @ 0xE0002000) (0002ms, 0631ms total)
T4838 001:001 JLINK_IsHalted()  returns TRUE (0005ms, 0636ms total)
T4838 001:006 JLINK_ReadReg(R15 (PC))  returns 0x10000000 (0000ms, 0631ms total)
T4838 001:006 JLINK_ClrBPEx(BPHandle = 0x00000006)  returns 0x00 (0000ms, 0631ms total)
T4838 001:006 JLINK_ReadReg(R0)  returns 0x00000001 (0000ms, 0631ms total)
T4838 001:006 JLINK_WriteReg(R0, 0x00002000)  returns 0x00 (0000ms, 0631ms total)
T4838 001:006 JLINK_WriteReg(R1, 0x00001000)  returns 0x00 (0000ms, 0631ms total)
T4838 001:006 JLINK_WriteReg(R2, 0x000000FF)  returns 0x00 (0000ms, 0631ms total)
T4838 001:006 JLINK_WriteReg(R3, 0x00000000)  returns 0x00 (0000ms, 0631ms total)
T4838 001:006 JLINK_WriteReg(R4, 0x00000000)  returns 0x00 (0000ms, 0631ms total)
T4838 001:006 JLINK_WriteReg(R5, 0x00000000)  returns 0x00 (0000ms, 0631ms total)
T4838 001:006 JLINK_WriteReg(R6, 0x00000000)  returns 0x00 (0000ms, 0631ms total)
T4838 001:006 JLINK_WriteReg(R7, 0x00000000)  returns 0x00 (0000ms, 0631ms total)
T4838 001:006 JLINK_WriteReg(R8, 0x00000000)  returns 0x00 (0000ms, 0631ms total)
T4838 001:006 JLINK_WriteReg(R9, 0x10000224)  returns 0x00 (0000ms, 0631ms total)
T4838 001:006 JLINK_WriteReg(R10, 0x00000000)  returns 0x00 (0000ms, 0631ms total)
T4838 001:006 JLINK_WriteReg(R11, 0x00000000)  returns 0x00 (0000ms, 0631ms total)
T4838 001:006 JLINK_WriteReg(R12, 0x00000000)  returns 0x00 (0000ms, 0631ms total)
T4838 001:006 JLINK_WriteReg(R13 (SP), 0x10008000)  returns 0x00 (0000ms, 0631ms total)
T4838 001:006 JLINK_WriteReg(R14, 0x10000001)  returns 0x00 (0000ms, 0631ms total)
T4838 001:006 JLINK_WriteReg(R15 (PC), 0x100000C8)  returns 0x00 (0000ms, 0631ms total)
T4838 001:006 JLINK_WriteReg(XPSR, 0x01000000)  returns 0x00 (0000ms, 0631ms total)
T4838 001:006 JLINK_WriteReg(MSP, 0x10008000)  returns 0x00 (0000ms, 0631ms total)
T4838 001:006 JLINK_WriteReg(PSP, 0x10008000)  returns 0x00 (0000ms, 0631ms total)
T4838 001:006 JLINK_WriteReg(CFBP, 0x00000000)  returns 0x00 (0000ms, 0631ms total)
T4838 001:006 JLINK_SetBPEx(Addr = 0x10000000, Type = 0xFFFFFFF2)  returns 0x00000007 (0000ms, 0631ms total)
T4838 001:006 JLINK_Go() -- CPU_WriteMem(4 bytes @ 0xE0002000) (0003ms, 0634ms total)
T4838 001:009 JLINK_IsHalted()  returns FALSE (0002ms, 0636ms total)
T4838 001:014 JLINK_IsHalted()  returns FALSE (0000ms, 0634ms total)
T4838 001:019 JLINK_IsHalted()  returns FALSE (0000ms, 0634ms total)
T4838 001:021 JLINK_IsHalted()  returns FALSE (0000ms, 0634ms total)
T4838 001:023 JLINK_IsHalted()  returns FALSE (0000ms, 0634ms total)
T4838 001:025 JLINK_IsHalted()  returns FALSE (0000ms, 0634ms total)
T4838 001:027 JLINK_IsHalted()  returns FALSE (0000ms, 0634ms total)
T4838 001:029 JLINK_IsHalted()  returns FALSE (0000ms, 0634ms total)
T4838 001:031 JLINK_IsHalted()  returns FALSE (0000ms, 0634ms total)
T4838 001:033 JLINK_IsHalted()  returns TRUE (0004ms, 0638ms total)
T4838 001:037 JLINK_ReadReg(R15 (PC))  returns 0x10000000 (0000ms, 0634ms total)
T4838 001:037 JLINK_ClrBPEx(BPHandle = 0x00000007)  returns 0x00 (0000ms, 0634ms total)
T4838 001:037 JLINK_ReadReg(R0)  returns 0x00000000 (0000ms, 0634ms total)
T4838 001:038 JLINK_WriteReg(R0, 0x00003000)  returns 0x00 (0000ms, 0634ms total)
T4838 001:038 JLINK_WriteReg(R1, 0x00001000)  returns 0x00 (0000ms, 0634ms total)
T4838 001:038 JLINK_WriteReg(R2, 0x000000FF)  returns 0x00 (0000ms, 0634ms total)
T4838 001:038 JLINK_WriteReg(R3, 0x00000000)  returns 0x00 (0000ms, 0634ms total)
T4838 001:038 JLINK_WriteReg(R4, 0x00000000)  returns 0x00 (0000ms, 0634ms total)
T4838 001:038 JLINK_WriteReg(R5, 0x00000000)  returns 0x00 (0000ms, 0634ms total)
T4838 001:038 JLINK_WriteReg(R6, 0x00000000)  returns 0x00 (0000ms, 0634ms total)
T4838 001:038 JLINK_WriteReg(R7, 0x00000000)  returns 0x00 (0000ms, 0634ms total)
T4838 001:038 JLINK_WriteReg(R8, 0x00000000)  returns 0x00 (0000ms, 0634ms total)
T4838 001:038 JLINK_WriteReg(R9, 0x10000224)  returns 0x00 (0000ms, 0634ms total)
T4838 001:038 JLINK_WriteReg(R10, 0x00000000)  returns 0x00 (0000ms, 0634ms total)
T4838 001:038 JLINK_WriteReg(R11, 0x00000000)  returns 0x00 (0000ms, 0634ms total)
T4838 001:038 JLINK_WriteReg(R12, 0x00000000)  returns 0x00 (0000ms, 0634ms total)
T4838 001:038 JLINK_WriteReg(R13 (SP), 0x10008000)  returns 0x00 (0000ms, 0634ms total)
T4838 001:038 JLINK_WriteReg(R14, 0x10000001)  returns 0x00 (0000ms, 0634ms total)
T4838 001:038 JLINK_WriteReg(R15 (PC), 0x10000020)  returns 0x00 (0000ms, 0634ms total)
T4838 001:038 JLINK_WriteReg(XPSR, 0x01000000)  returns 0x00 (0000ms, 0634ms total)
T4838 001:038 JLINK_WriteReg(MSP, 0x10008000)  returns 0x00 (0000ms, 0634ms total)
T4838 001:038 JLINK_WriteReg(PSP, 0x10008000)  returns 0x00 (0000ms, 0634ms total)
T4838 001:038 JLINK_WriteReg(CFBP, 0x00000000)  returns 0x00 (0000ms, 0634ms total)
T4838 001:038 JLINK_SetBPEx(Addr = 0x10000000, Type = 0xFFFFFFF2)  returns 0x00000008 (0000ms, 0634ms total)
T4838 001:038 JLINK_Go() -- CPU_WriteMem(4 bytes @ 0xE0002000) (0003ms, 0637ms total)
T4838 001:041 JLINK_IsHalted()  returns TRUE (0004ms, 0641ms total)
T4838 001:045 JLINK_ReadReg(R15 (PC))  returns 0x10000000 (0000ms, 0637ms total)
T4838 001:045 JLINK_ClrBPEx(BPHandle = 0x00000008)  returns 0x00 (0000ms, 0637ms total)
T4838 001:045 JLINK_ReadReg(R0)  returns 0x00000001 (0000ms, 0637ms total)
T4838 001:045 JLINK_WriteReg(R0, 0x00003000)  returns 0x00 (0000ms, 0637ms total)
T4838 001:045 JLINK_WriteReg(R1, 0x00001000)  returns 0x00 (0000ms, 0637ms total)
T4838 001:045 JLINK_WriteReg(R2, 0x000000FF)  returns 0x00 (0000ms, 0637ms total)
T4838 001:045 JLINK_WriteReg(R3, 0x00000000)  returns 0x00 (0000ms, 0637ms total)
T4838 001:045 JLINK_WriteReg(R4, 0x00000000)  returns 0x00 (0000ms, 0637ms total)
T4838 001:045 JLINK_WriteReg(R5, 0x00000000)  returns 0x00 (0000ms, 0637ms total)
T4838 001:045 JLINK_WriteReg(R6, 0x00000000)  returns 0x00 (0000ms, 0637ms total)
T4838 001:045 JLINK_WriteReg(R7, 0x00000000)  returns 0x00 (0000ms, 0637ms total)
T4838 001:045 JLINK_WriteReg(R8, 0x00000000)  returns 0x00 (0000ms, 0637ms total)
T4838 001:045 JLINK_WriteReg(R9, 0x10000224)  returns 0x00 (0000ms, 0637ms total)
T4838 001:045 JLINK_WriteReg(R10, 0x00000000)  returns 0x00 (0000ms, 0637ms total)
T4838 001:045 JLINK_WriteReg(R11, 0x00000000)  returns 0x00 (0000ms, 0637ms total)
T4838 001:045 JLINK_WriteReg(R12, 0x00000000)  returns 0x00 (0000ms, 0637ms total)
T4838 001:045 JLINK_WriteReg(R13 (SP), 0x10008000)  returns 0x00 (0000ms, 0637ms total)
T4838 001:045 JLINK_WriteReg(R14, 0x10000001)  returns 0x00 (0000ms, 0637ms total)
T4838 001:045 JLINK_WriteReg(R15 (PC), 0x100000C8)  returns 0x00 (0000ms, 0637ms total)
T4838 001:045 JLINK_WriteReg(XPSR, 0x01000000)  returns 0x00 (0000ms, 0637ms total)
T4838 001:045 JLINK_WriteReg(MSP, 0x10008000)  returns 0x00 (0000ms, 0637ms total)
T4838 001:045 JLINK_WriteReg(PSP, 0x10008000)  returns 0x00 (0000ms, 0637ms total)
T4838 001:045 JLINK_WriteReg(CFBP, 0x00000000)  returns 0x00 (0000ms, 0637ms total)
T4838 001:045 JLINK_SetBPEx(Addr = 0x10000000, Type = 0xFFFFFFF2)  returns 0x00000009 (0000ms, 0637ms total)
T4838 001:045 JLINK_Go() -- CPU_WriteMem(4 bytes @ 0xE0002000) (0003ms, 0640ms total)
T4838 001:048 JLINK_IsHalted()  returns FALSE (0000ms, 0640ms total)
T4838 001:059 JLINK_IsHalted()  returns FALSE (0001ms, 0641ms total)
T4838 001:062 JLINK_IsHalted()  returns FALSE (0000ms, 0640ms total)
T4838 001:064 JLINK_IsHalted()  returns FALSE (0001ms, 0641ms total)
T4838 001:067 JLINK_IsHalted()  returns FALSE (0000ms, 0640ms total)
T4838 001:071 JLINK_IsHalted()  returns FALSE (0000ms, 0640ms total)
T4838 001:073 JLINK_IsHalted()  returns TRUE (0004ms, 0644ms total)
T4838 001:077 JLINK_ReadReg(R15 (PC))  returns 0x10000000 (0000ms, 0640ms total)
T4838 001:077 JLINK_ClrBPEx(BPHandle = 0x00000009)  returns 0x00 (0000ms, 0640ms total)
T4838 001:077 JLINK_ReadReg(R0)  returns 0x00000000 (0000ms, 0640ms total)
T4838 001:078 JLINK_WriteReg(R0, 0x00004000)  returns 0x00 (0000ms, 0640ms total)
T4838 001:078 JLINK_WriteReg(R1, 0x00001000)  returns 0x00 (0000ms, 0640ms total)
T4838 001:078 JLINK_WriteReg(R2, 0x000000FF)  returns 0x00 (0000ms, 0640ms total)
T4838 001:078 JLINK_WriteReg(R3, 0x00000000)  returns 0x00 (0000ms, 0640ms total)
T4838 001:078 JLINK_WriteReg(R4, 0x00000000)  returns 0x00 (0000ms, 0640ms total)
T4838 001:078 JLINK_WriteReg(R5, 0x00000000)  returns 0x00 (0000ms, 0640ms total)
T4838 001:078 JLINK_WriteReg(R6, 0x00000000)  returns 0x00 (0000ms, 0640ms total)
T4838 001:078 JLINK_WriteReg(R7, 0x00000000)  returns 0x00 (0000ms, 0640ms total)
T4838 001:078 JLINK_WriteReg(R8, 0x00000000)  returns 0x00 (0000ms, 0640ms total)
T4838 001:078 JLINK_WriteReg(R9, 0x10000224)  returns 0x00 (0000ms, 0640ms total)
T4838 001:078 JLINK_WriteReg(R10, 0x00000000)  returns 0x00 (0000ms, 0640ms total)
T4838 001:078 JLINK_WriteReg(R11, 0x00000000)  returns 0x00 (0000ms, 0640ms total)
T4838 001:078 JLINK_WriteReg(R12, 0x00000000)  returns 0x00 (0000ms, 0640ms total)
T4838 001:078 JLINK_WriteReg(R13 (SP), 0x10008000)  returns 0x00 (0000ms, 0640ms total)
T4838 001:078 JLINK_WriteReg(R14, 0x10000001)  returns 0x00 (0000ms, 0640ms total)
T4838 001:078 JLINK_WriteReg(R15 (PC), 0x10000020)  returns 0x00 (0000ms, 0640ms total)
T4838 001:078 JLINK_WriteReg(XPSR, 0x01000000)  returns 0x00 (0000ms, 0640ms total)
T4838 001:078 JLINK_WriteReg(MSP, 0x10008000)  returns 0x00 (0000ms, 0640ms total)
T4838 001:078 JLINK_WriteReg(PSP, 0x10008000)  returns 0x00 (0000ms, 0640ms total)
T4838 001:078 JLINK_WriteReg(CFBP, 0x00000000)  returns 0x00 (0000ms, 0640ms total)
T4838 001:078 JLINK_SetBPEx(Addr = 0x10000000, Type = 0xFFFFFFF2)  returns 0x0000000A (0000ms, 0640ms total)
T4838 001:078 JLINK_Go() -- CPU_WriteMem(4 bytes @ 0xE0002000) (0003ms, 0643ms total)
T4838 001:081 JLINK_IsHalted()  returns TRUE (0004ms, 0647ms total)
T4838 001:085 JLINK_ReadReg(R15 (PC))  returns 0x10000000 (0000ms, 0643ms total)
T4838 001:085 JLINK_ClrBPEx(BPHandle = 0x0000000A)  returns 0x00 (0000ms, 0643ms total)
T4838 001:085 JLINK_ReadReg(R0)  returns 0x00000001 (0000ms, 0643ms total)
T4838 001:085 JLINK_WriteReg(R0, 0x00004000)  returns 0x00 (0000ms, 0643ms total)
T4838 001:085 JLINK_WriteReg(R1, 0x00001000)  returns 0x00 (0000ms, 0643ms total)
T4838 001:085 JLINK_WriteReg(R2, 0x000000FF)  returns 0x00 (0000ms, 0643ms total)
T4838 001:085 JLINK_WriteReg(R3, 0x00000000)  returns 0x00 (0000ms, 0643ms total)
T4838 001:085 JLINK_WriteReg(R4, 0x00000000)  returns 0x00 (0000ms, 0643ms total)
T4838 001:085 JLINK_WriteReg(R5, 0x00000000)  returns 0x00 (0000ms, 0643ms total)
T4838 001:085 JLINK_WriteReg(R6, 0x00000000)  returns 0x00 (0000ms, 0643ms total)
T4838 001:085 JLINK_WriteReg(R7, 0x00000000)  returns 0x00 (0000ms, 0643ms total)
T4838 001:085 JLINK_WriteReg(R8, 0x00000000)  returns 0x00 (0000ms, 0643ms total)
T4838 001:085 JLINK_WriteReg(R9, 0x10000224)  returns 0x00 (0000ms, 0643ms total)
T4838 001:085 JLINK_WriteReg(R10, 0x00000000)  returns 0x00 (0000ms, 0643ms total)
T4838 001:085 JLINK_WriteReg(R11, 0x00000000)  returns 0x00 (0000ms, 0643ms total)
T4838 001:085 JLINK_WriteReg(R12, 0x00000000)  returns 0x00 (0000ms, 0643ms total)
T4838 001:085 JLINK_WriteReg(R13 (SP), 0x10008000)  returns 0x00 (0000ms, 0643ms total)
T4838 001:085 JLINK_WriteReg(R14, 0x10000001)  returns 0x00 (0000ms, 0643ms total)
T4838 001:085 JLINK_WriteReg(R15 (PC), 0x100000C8)  returns 0x00 (0000ms, 0643ms total)
T4838 001:085 JLINK_WriteReg(XPSR, 0x01000000)  returns 0x00 (0000ms, 0643ms total)
T4838 001:085 JLINK_WriteReg(MSP, 0x10008000)  returns 0x00 (0000ms, 0643ms total)
T4838 001:085 JLINK_WriteReg(PSP, 0x10008000)  returns 0x00 (0000ms, 0643ms total)
T4838 001:085 JLINK_WriteReg(CFBP, 0x00000000)  returns 0x00 (0000ms, 0643ms total)
T4838 001:085 JLINK_SetBPEx(Addr = 0x10000000, Type = 0xFFFFFFF2)  returns 0x0000000B (0000ms, 0643ms total)
T4838 001:085 JLINK_Go() -- CPU_WriteMem(4 bytes @ 0xE0002000) (0003ms, 0646ms total)
T4838 001:088 JLINK_IsHalted()  returns FALSE (0001ms, 0647ms total)
T4838 001:091 JLINK_IsHalted()  returns FALSE (0000ms, 0646ms total)
T4838 001:093 JLINK_IsHalted()  returns FALSE (0000ms, 0646ms total)
T4838 001:095 JLINK_IsHalted()  returns FALSE (0000ms, 0646ms total)
T4838 001:097 JLINK_IsHalted()  returns FALSE (0000ms, 0646ms total)
T4838 001:099 JLINK_IsHalted()  returns FALSE (0001ms, 0647ms total)
T4838 001:103 JLINK_IsHalted()  returns FALSE (0000ms, 0646ms total)
T4838 001:105 JLINK_IsHalted()  returns FALSE (0000ms, 0646ms total)
T4838 001:109 JLINK_IsHalted()  returns FALSE (0000ms, 0646ms total)
T4838 001:111 JLINK_IsHalted()  returns FALSE (0000ms, 0646ms total)
T4838 001:113 JLINK_IsHalted()  returns TRUE (0004ms, 0650ms total)
T4838 001:117 JLINK_ReadReg(R15 (PC))  returns 0x10000000 (0000ms, 0646ms total)
T4838 001:117 JLINK_ClrBPEx(BPHandle = 0x0000000B)  returns 0x00 (0000ms, 0646ms total)
T4838 001:117 JLINK_ReadReg(R0)  returns 0x00000000 (0000ms, 0646ms total)
T4838 001:118 JLINK_WriteReg(R0, 0x00005000)  returns 0x00 (0000ms, 0646ms total)
T4838 001:118 JLINK_WriteReg(R1, 0x00001000)  returns 0x00 (0000ms, 0646ms total)
T4838 001:118 JLINK_WriteReg(R2, 0x000000FF)  returns 0x00 (0000ms, 0646ms total)
T4838 001:118 JLINK_WriteReg(R3, 0x00000000)  returns 0x00 (0000ms, 0646ms total)
T4838 001:118 JLINK_WriteReg(R4, 0x00000000)  returns 0x00 (0000ms, 0646ms total)
T4838 001:118 JLINK_WriteReg(R5, 0x00000000)  returns 0x00 (0000ms, 0646ms total)
T4838 001:118 JLINK_WriteReg(R6, 0x00000000)  returns 0x00 (0000ms, 0646ms total)
T4838 001:118 JLINK_WriteReg(R7, 0x00000000)  returns 0x00 (0000ms, 0646ms total)
T4838 001:118 JLINK_WriteReg(R8, 0x00000000)  returns 0x00 (0000ms, 0646ms total)
T4838 001:118 JLINK_WriteReg(R9, 0x10000224)  returns 0x00 (0000ms, 0646ms total)
T4838 001:118 JLINK_WriteReg(R10, 0x00000000)  returns 0x00 (0000ms, 0646ms total)
T4838 001:118 JLINK_WriteReg(R11, 0x00000000)  returns 0x00 (0000ms, 0646ms total)
T4838 001:118 JLINK_WriteReg(R12, 0x00000000)  returns 0x00 (0000ms, 0646ms total)
T4838 001:118 JLINK_WriteReg(R13 (SP), 0x10008000)  returns 0x00 (0000ms, 0646ms total)
T4838 001:118 JLINK_WriteReg(R14, 0x10000001)  returns 0x00 (0000ms, 0646ms total)
T4838 001:118 JLINK_WriteReg(R15 (PC), 0x10000020)  returns 0x00 (0000ms, 0646ms total)
T4838 001:118 JLINK_WriteReg(XPSR, 0x01000000)  returns 0x00 (0000ms, 0646ms total)
T4838 001:118 JLINK_WriteReg(MSP, 0x10008000)  returns 0x00 (0000ms, 0646ms total)
T4838 001:118 JLINK_WriteReg(PSP, 0x10008000)  returns 0x00 (0000ms, 0646ms total)
T4838 001:118 JLINK_WriteReg(CFBP, 0x00000000)  returns 0x00 (0000ms, 0646ms total)
T4838 001:118 JLINK_SetBPEx(Addr = 0x10000000, Type = 0xFFFFFFF2)  returns 0x0000000C (0000ms, 0646ms total)
T4838 001:118 JLINK_Go() -- CPU_WriteMem(4 bytes @ 0xE0002000) (0003ms, 0649ms total)
T4838 001:121 JLINK_IsHalted()  returns TRUE (0004ms, 0653ms total)
T4838 001:125 JLINK_ReadReg(R15 (PC))  returns 0x10000000 (0000ms, 0649ms total)
T4838 001:125 JLINK_ClrBPEx(BPHandle = 0x0000000C)  returns 0x00 (0000ms, 0649ms total)
T4838 001:125 JLINK_ReadReg(R0)  returns 0x00000001 (0000ms, 0649ms total)
T4838 001:125 JLINK_WriteReg(R0, 0x00005000)  returns 0x00 (0000ms, 0649ms total)
T4838 001:125 JLINK_WriteReg(R1, 0x00001000)  returns 0x00 (0000ms, 0649ms total)
T4838 001:125 JLINK_WriteReg(R2, 0x000000FF)  returns 0x00 (0000ms, 0649ms total)
T4838 001:125 JLINK_WriteReg(R3, 0x00000000)  returns 0x00 (0000ms, 0649ms total)
T4838 001:125 JLINK_WriteReg(R4, 0x00000000)  returns 0x00 (0000ms, 0649ms total)
T4838 001:125 JLINK_WriteReg(R5, 0x00000000)  returns 0x00 (0000ms, 0649ms total)
T4838 001:125 JLINK_WriteReg(R6, 0x00000000)  returns 0x00 (0000ms, 0649ms total)
T4838 001:125 JLINK_WriteReg(R7, 0x00000000)  returns 0x00 (0000ms, 0649ms total)
T4838 001:125 JLINK_WriteReg(R8, 0x00000000)  returns 0x00 (0000ms, 0649ms total)
T4838 001:125 JLINK_WriteReg(R9, 0x10000224)  returns 0x00 (0000ms, 0649ms total)
T4838 001:125 JLINK_WriteReg(R10, 0x00000000)  returns 0x00 (0000ms, 0649ms total)
T4838 001:125 JLINK_WriteReg(R11, 0x00000000)  returns 0x00 (0000ms, 0649ms total)
T4838 001:125 JLINK_WriteReg(R12, 0x00000000)  returns 0x00 (0000ms, 0649ms total)
T4838 001:125 JLINK_WriteReg(R13 (SP), 0x10008000)  returns 0x00 (0000ms, 0649ms total)
T4838 001:125 JLINK_WriteReg(R14, 0x10000001)  returns 0x00 (0000ms, 0649ms total)
T4838 001:125 JLINK_WriteReg(R15 (PC), 0x100000C8)  returns 0x00 (0000ms, 0649ms total)
T4838 001:125 JLINK_WriteReg(XPSR, 0x01000000)  returns 0x00 (0000ms, 0649ms total)
T4838 001:125 JLINK_WriteReg(MSP, 0x10008000)  returns 0x00 (0000ms, 0649ms total)
T4838 001:125 JLINK_WriteReg(PSP, 0x10008000)  returns 0x00 (0000ms, 0649ms total)
T4838 001:125 JLINK_WriteReg(CFBP, 0x00000000)  returns 0x00 (0000ms, 0649ms total)
T4838 001:125 JLINK_SetBPEx(Addr = 0x10000000, Type = 0xFFFFFFF2)  returns 0x0000000D (0001ms, 0650ms total)
T4838 001:126 JLINK_Go() -- CPU_WriteMem(4 bytes @ 0xE0002000) (0002ms, 0652ms total)
T4838 001:128 JLINK_IsHalted()  returns FALSE (0001ms, 0653ms total)
T4838 001:131 JLINK_IsHalted()  returns FALSE (0000ms, 0652ms total)
T4838 001:133 JLINK_IsHalted()  returns FALSE (0000ms, 0652ms total)
T4838 001:135 JLINK_IsHalted()  returns FALSE (0000ms, 0652ms total)
T4838 001:137 JLINK_IsHalted()  returns FALSE (0000ms, 0652ms total)
T4838 001:139 JLINK_IsHalted()  returns FALSE (0000ms, 0652ms total)
T4838 001:141 JLINK_IsHalted()  returns FALSE (0000ms, 0652ms total)
T4838 001:143 JLINK_IsHalted()  returns FALSE (0000ms, 0652ms total)
T4838 001:145 JLINK_IsHalted()  returns FALSE (0000ms, 0652ms total)
T4838 001:147 JLINK_IsHalted()  returns FALSE (0000ms, 0652ms total)
T4838 001:149 JLINK_IsHalted()  returns FALSE (0000ms, 0652ms total)
T4838 001:151 JLINK_IsHalted()  returns FALSE (0000ms, 0652ms total)
T4838 001:153 JLINK_IsHalted()  returns TRUE (0004ms, 0656ms total)
T4838 001:157 JLINK_ReadReg(R15 (PC))  returns 0x10000000 (0000ms, 0652ms total)
T4838 001:157 JLINK_ClrBPEx(BPHandle = 0x0000000D)  returns 0x00 (0000ms, 0652ms total)
T4838 001:157 JLINK_ReadReg(R0)  returns 0x00000000 (0000ms, 0652ms total)
T4838 001:157 JLINK_WriteReg(R0, 0x00000001)  returns 0x00 (0000ms, 0652ms total)
T4838 001:157 JLINK_WriteReg(R1, 0x00001000)  returns 0x00 (0000ms, 0652ms total)
T4838 001:157 JLINK_WriteReg(R2, 0x000000FF)  returns 0x00 (0001ms, 0653ms total)
T4838 001:158 JLINK_WriteReg(R3, 0x00000000)  returns 0x00 (0000ms, 0653ms total)
T4838 001:158 JLINK_WriteReg(R4, 0x00000000)  returns 0x00 (0000ms, 0653ms total)
T4838 001:158 JLINK_WriteReg(R5, 0x00000000)  returns 0x00 (0000ms, 0653ms total)
T4838 001:158 JLINK_WriteReg(R6, 0x00000000)  returns 0x00 (0000ms, 0653ms total)
T4838 001:158 JLINK_WriteReg(R7, 0x00000000)  returns 0x00 (0000ms, 0653ms total)
T4838 001:158 JLINK_WriteReg(R8, 0x00000000)  returns 0x00 (0000ms, 0653ms total)
T4838 001:158 JLINK_WriteReg(R9, 0x10000224)  returns 0x00 (0000ms, 0653ms total)
T4838 001:158 JLINK_WriteReg(R10, 0x00000000)  returns 0x00 (0000ms, 0653ms total)
T4838 001:158 JLINK_WriteReg(R11, 0x00000000)  returns 0x00 (0000ms, 0653ms total)
T4838 001:158 JLINK_WriteReg(R12, 0x00000000)  returns 0x00 (0000ms, 0653ms total)
T4838 001:158 JLINK_WriteReg(R13 (SP), 0x10008000)  returns 0x00 (0000ms, 0653ms total)
T4838 001:158 JLINK_WriteReg(R14, 0x10000001)  returns 0x00 (0000ms, 0653ms total)
T4838 001:158 JLINK_WriteReg(R15 (PC), 0x1000008C)  returns 0x00 (0000ms, 0653ms total)
T4838 001:158 JLINK_WriteReg(XPSR, 0x01000000)  returns 0x00 (0000ms, 0653ms total)
T4838 001:158 JLINK_WriteReg(MSP, 0x10008000)  returns 0x00 (0000ms, 0653ms total)
T4838 001:158 JLINK_WriteReg(PSP, 0x10008000)  returns 0x00 (0000ms, 0653ms total)
T4838 001:158 JLINK_WriteReg(CFBP, 0x00000000)  returns 0x00 (0000ms, 0653ms total)
T4838 001:158 JLINK_SetBPEx(Addr = 0x10000000, Type = 0xFFFFFFF2)  returns 0x0000000E (0000ms, 0653ms total)
T4838 001:158 JLINK_Go() -- CPU_WriteMem(4 bytes @ 0xE0002000) (0003ms, 0656ms total)
T4838 001:161 JLINK_IsHalted()  returns TRUE (0004ms, 0660ms total)
T4838 001:165 JLINK_ReadReg(R15 (PC))  returns 0x10000000 (0000ms, 0656ms total)
T4838 001:165 JLINK_ClrBPEx(BPHandle = 0x0000000E)  returns 0x00 (0000ms, 0656ms total)
T4838 001:165 JLINK_ReadReg(R0)  returns 0x00000000 (0000ms, 0656ms total)
T4838 001:222 JLINK_WriteMem(0x10000000, 0x0228 Bytes, ...) -- Data:  00 BE 0A E0 0D 78 2D 06 68 40 08 24 40 00 00 D3 ... -- CPU_WriteMem(552 bytes @ 0x10000000)  returns 0x228 (0005ms, 0661ms total)
T4838 001:227 JLINK_WriteReg(R0, 0x00000000)  returns 0x00 (0000ms, 0661ms total)
T4838 001:227 JLINK_WriteReg(R1, 0x02DC6C00)  returns 0x00 (0000ms, 0661ms total)
T4838 001:227 JLINK_WriteReg(R2, 0x00000002)  returns 0x00 (0000ms, 0661ms total)
T4838 001:227 JLINK_WriteReg(R3, 0x00000000)  returns 0x00 (0000ms, 0661ms total)
T4838 001:227 JLINK_WriteReg(R4, 0x00000000)  returns 0x00 (0000ms, 0661ms total)
T4838 001:227 JLINK_WriteReg(R5, 0x00000000)  returns 0x00 (0000ms, 0661ms total)
T4838 001:227 JLINK_WriteReg(R6, 0x00000000)  returns 0x00 (0000ms, 0661ms total)
T4838 001:227 JLINK_WriteReg(R7, 0x00000000)  returns 0x00 (0000ms, 0661ms total)
T4838 001:227 JLINK_WriteReg(R8, 0x00000000)  returns 0x00 (0000ms, 0661ms total)
T4838 001:227 JLINK_WriteReg(R9, 0x10000224)  returns 0x00 (0000ms, 0661ms total)
T4838 001:227 JLINK_WriteReg(R10, 0x00000000)  returns 0x00 (0000ms, 0661ms total)
T4838 001:227 JLINK_WriteReg(R11, 0x00000000)  returns 0x00 (0000ms, 0661ms total)
T4838 001:227 JLINK_WriteReg(R12, 0x00000000)  returns 0x00 (0000ms, 0661ms total)
T4838 001:227 JLINK_WriteReg(R13 (SP), 0x10008000)  returns 0x00 (0000ms, 0661ms total)
T4838 001:227 JLINK_WriteReg(R14, 0x10000001)  returns 0x00 (0000ms, 0661ms total)
T4838 001:227 JLINK_WriteReg(R15 (PC), 0x10000080)  returns 0x00 (0000ms, 0661ms total)
T4838 001:227 JLINK_WriteReg(XPSR, 0x01000000)  returns 0x00 (0000ms, 0661ms total)
T4838 001:227 JLINK_WriteReg(MSP, 0x10008000)  returns 0x00 (0000ms, 0661ms total)
T4838 001:227 JLINK_WriteReg(PSP, 0x10008000)  returns 0x00 (0000ms, 0661ms total)
T4838 001:227 JLINK_WriteReg(CFBP, 0x00000000)  returns 0x00 (0000ms, 0661ms total)
T4838 001:227 JLINK_SetBPEx(Addr = 0x10000000, Type = 0xFFFFFFF2)  returns 0x0000000F (0000ms, 0661ms total)
T4838 001:227 JLINK_Go() -- CPU_WriteMem(4 bytes @ 0xE0002000) (0002ms, 0663ms total)
T4838 001:229 JLINK_IsHalted()  returns TRUE (0005ms, 0668ms total)
T4838 001:234 JLINK_ReadReg(R15 (PC))  returns 0x10000000 (0000ms, 0663ms total)
T4838 001:234 JLINK_ClrBPEx(BPHandle = 0x0000000F)  returns 0x00 (0000ms, 0663ms total)
T4838 001:234 JLINK_ReadReg(R0)  returns 0x00000000 (0000ms, 0663ms total)
T4838 001:234 JLINK_WriteMem(0x10000228, 0x0DD8 Bytes, ...) -- Data:  70 6F 00 20 1D 02 00 00 25 02 00 00 27 02 00 00 ... -- CPU_WriteMem(3544 bytes @ 0x10000228)  returns 0xDD8 (0032ms, 0695ms total)
T4838 001:266 JLINK_WriteMem(0x10001000, 0x1000 Bytes, ...) -- Data:  08 D8 64 10 A1 42 05 D9 08 B1 03 24 00 E0 01 24 ... -- CPU_WriteMem(4096 bytes @ 0x10001000)  returns 0x1000 (0037ms, 0732ms total)
T4838 001:303 JLINK_WriteMem(0x10002000, 0x1000 Bytes, ...) -- Data:  EB 48 45 68 00 20 FF F7 E1 FF EA 48 05 40 60 68 ... -- CPU_WriteMem(4096 bytes @ 0x10002000)  returns 0x1000 (0036ms, 0768ms total)
T4838 001:339 JLINK_WriteMem(0x10003000, 0x1000 Bytes, ...) -- Data:  1C B9 FD F7 11 FA 00 BF FE E7 1F BD 10 B5 FD F7 ... -- CPU_WriteMem(4096 bytes @ 0x10003000)  returns 0x1000 (0038ms, 0806ms total)
T4838 001:377 JLINK_WriteMem(0x10004000, 0x0228 Bytes, ...) -- Data:  00 F0 93 F8 01 20 00 F0 87 F8 FF F7 B7 FF 01 27 ... -- CPU_WriteMem(552 bytes @ 0x10004000)  returns 0x228 (0006ms, 0812ms total)
T4838 001:383 JLINK_WriteReg(R0, 0x00000000)  returns 0x00 (0000ms, 0812ms total)
T4838 001:383 JLINK_WriteReg(R1, 0x00004000)  returns 0x00 (0000ms, 0812ms total)
T4838 001:383 JLINK_WriteReg(R2, 0x10000228)  returns 0x00 (0000ms, 0812ms total)
T4838 001:383 JLINK_WriteReg(R3, 0x00000000)  returns 0x00 (0000ms, 0812ms total)
T4838 001:383 JLINK_WriteReg(R4, 0x00000000)  returns 0x00 (0000ms, 0812ms total)
T4838 001:383 JLINK_WriteReg(R5, 0x00000000)  returns 0x00 (0000ms, 0812ms total)
T4838 001:383 JLINK_WriteReg(R6, 0x00000000)  returns 0x00 (0000ms, 0812ms total)
T4838 001:383 JLINK_WriteReg(R7, 0x00000000)  returns 0x00 (0000ms, 0812ms total)
T4838 001:383 JLINK_WriteReg(R8, 0x00000000)  returns 0x00 (0000ms, 0812ms total)
T4838 001:383 JLINK_WriteReg(R9, 0x10000224)  returns 0x00 (0000ms, 0812ms total)
T4838 001:383 JLINK_WriteReg(R10, 0x00000000)  returns 0x00 (0000ms, 0812ms total)
T4838 001:383 JLINK_WriteReg(R11, 0x00000000)  returns 0x00 (0000ms, 0812ms total)
T4838 001:383 JLINK_WriteReg(R12, 0x00000000)  returns 0x00 (0000ms, 0812ms total)
T4838 001:383 JLINK_WriteReg(R13 (SP), 0x10008000)  returns 0x00 (0000ms, 0812ms total)
T4838 001:383 JLINK_WriteReg(R14, 0x10000001)  returns 0x00 (0000ms, 0812ms total)
T4838 001:383 JLINK_WriteReg(R15 (PC), 0x1000010A)  returns 0x00 (0000ms, 0812ms total)
T4838 001:383 JLINK_WriteReg(XPSR, 0x01000000)  returns 0x00 (0000ms, 0812ms total)
T4838 001:383 JLINK_WriteReg(MSP, 0x10008000)  returns 0x00 (0000ms, 0812ms total)
T4838 001:383 JLINK_WriteReg(PSP, 0x10008000)  returns 0x00 (0000ms, 0812ms total)
T4838 001:383 JLINK_WriteReg(CFBP, 0x00000000)  returns 0x00 (0000ms, 0812ms total)
T4838 001:383 JLINK_SetBPEx(Addr = 0x10000000, Type = 0xFFFFFFF2)  returns 0x00000010 (0000ms, 0812ms total)
T4838 001:383 JLINK_Go() -- CPU_WriteMem(4 bytes @ 0xE0002000) (0002ms, 0814ms total)
T4838 001:385 JLINK_IsHalted()  returns FALSE (0001ms, 0815ms total)
T4838 001:403 JLINK_IsHalted()  returns FALSE (0000ms, 0814ms total)
T4838 001:405 JLINK_IsHalted()  returns FALSE (0000ms, 0814ms total)
T4838 001:407 JLINK_IsHalted()  returns FALSE (0000ms, 0814ms total)
T4838 001:409 JLINK_IsHalted()  returns FALSE (0001ms, 0815ms total)
T4838 001:413 JLINK_IsHalted()  returns FALSE (0000ms, 0814ms total)
T4838 001:415 JLINK_IsHalted()  returns FALSE (0000ms, 0814ms total)
T4838 001:417 JLINK_IsHalted()  returns FALSE (0000ms, 0814ms total)
T4838 001:419 JLINK_IsHalted()  returns FALSE (0000ms, 0814ms total)
T4838 001:421 JLINK_IsHalted()  returns FALSE (0000ms, 0814ms total)
T4838 001:423 JLINK_IsHalted()  returns FALSE (0000ms, 0814ms total)
T4838 001:425 JLINK_IsHalted()  returns FALSE (0000ms, 0814ms total)
T4838 001:427 JLINK_IsHalted()  returns FALSE (0000ms, 0814ms total)
T4838 001:429 JLINK_IsHalted()  returns FALSE (0000ms, 0814ms total)
T4838 001:431 JLINK_IsHalted()  returns FALSE (0000ms, 0814ms total)
T4838 001:433 JLINK_IsHalted()  returns FALSE (0000ms, 0814ms total)
T4838 001:437 JLINK_IsHalted()  returns FALSE (0000ms, 0814ms total)
T4838 001:439 JLINK_IsHalted()  returns FALSE (0000ms, 0814ms total)
T4838 001:441 JLINK_IsHalted()  returns TRUE (0005ms, 0819ms total)
T4838 001:446 JLINK_ReadReg(R15 (PC))  returns 0x10000000 (0000ms, 0814ms total)
T4838 001:446 JLINK_ClrBPEx(BPHandle = 0x00000010)  returns 0x00 (0000ms, 0814ms total)
T4838 001:446 JLINK_ReadReg(R0)  returns 0x00000000 (0000ms, 0814ms total)
T4838 001:446 JLINK_WriteMem(0x10000228, 0x0DD8 Bytes, ...) -- Data:  10 BD 02 F0 FF 03 43 EA 03 22 42 EA 02 42 00 F0 ... -- CPU_WriteMem(3544 bytes @ 0x10000228)  returns 0xDD8 (0032ms, 0846ms total)
T4838 001:478 JLINK_WriteMem(0x10001000, 0x1000 Bytes, ...) -- Data:  04 0C 00 21 3C BF C9 43 F6 1B 4F EA 17 44 4E EA ... -- CPU_WriteMem(4096 bytes @ 0x10001000)  returns 0x1000 (0037ms, 0883ms total)
T4838 001:515 JLINK_WriteMem(0x10002000, 0x1000 Bytes, ...) -- Data:  00 00 00 C8 00 00 00 00 0C 40 00 00 00 00 40 9C ... -- CPU_WriteMem(4096 bytes @ 0x10002000)  returns 0x1000 (0037ms, 0920ms total)
T4838 001:552 JLINK_WriteMem(0x10003000, 0x1000 Bytes, ...) -- Data:  FF FF FF FF FF FF FF FF FF FF FF FF FF FF FF FF ... -- CPU_WriteMem(4096 bytes @ 0x10003000)  returns 0x1000 (0035ms, 0955ms total)
T4838 001:587 JLINK_WriteMem(0x10004000, 0x0228 Bytes, ...) -- Data:  FF FF FF FF FF FF FF FF FF FF FF FF FF FF FF FF ... -- CPU_WriteMem(552 bytes @ 0x10004000)  returns 0x228 (0006ms, 0961ms total)
T4838 001:593 JLINK_WriteReg(R0, 0x00004000)  returns 0x00 (0000ms, 0961ms total)
T4838 001:593 JLINK_WriteReg(R1, 0x00001F08)  returns 0x00 (0000ms, 0961ms total)
T4838 001:593 JLINK_WriteReg(R2, 0x10000228)  returns 0x00 (0000ms, 0961ms total)
T4838 001:593 JLINK_WriteReg(R3, 0x00000000)  returns 0x00 (0000ms, 0961ms total)
T4838 001:593 JLINK_WriteReg(R4, 0x00000000)  returns 0x00 (0000ms, 0961ms total)
T4838 001:593 JLINK_WriteReg(R5, 0x00000000)  returns 0x00 (0000ms, 0961ms total)
T4838 001:593 JLINK_WriteReg(R6, 0x00000000)  returns 0x00 (0000ms, 0961ms total)
T4838 001:593 JLINK_WriteReg(R7, 0x00000000)  returns 0x00 (0000ms, 0961ms total)
T4838 001:593 JLINK_WriteReg(R8, 0x00000000)  returns 0x00 (0000ms, 0961ms total)
T4838 001:593 JLINK_WriteReg(R9, 0x10000224)  returns 0x00 (0000ms, 0961ms total)
T4838 001:593 JLINK_WriteReg(R10, 0x00000000)  returns 0x00 (0000ms, 0961ms total)
T4838 001:593 JLINK_WriteReg(R11, 0x00000000)  returns 0x00 (0000ms, 0961ms total)
T4838 001:593 JLINK_WriteReg(R12, 0x00000000)  returns 0x00 (0000ms, 0961ms total)
T4838 001:593 JLINK_WriteReg(R13 (SP), 0x10008000)  returns 0x00 (0000ms, 0961ms total)
T4838 001:593 JLINK_WriteReg(R14, 0x10000001)  returns 0x00 (0000ms, 0961ms total)
T4838 001:593 JLINK_WriteReg(R15 (PC), 0x1000010A)  returns 0x00 (0000ms, 0961ms total)
T4838 001:593 JLINK_WriteReg(XPSR, 0x01000000)  returns 0x00 (0000ms, 0961ms total)
T4838 001:593 JLINK_WriteReg(MSP, 0x10008000)  returns 0x00 (0000ms, 0961ms total)
T4838 001:593 JLINK_WriteReg(PSP, 0x10008000)  returns 0x00 (0000ms, 0961ms total)
T4838 001:593 JLINK_WriteReg(CFBP, 0x00000000)  returns 0x00 (0000ms, 0961ms total)
T4838 001:593 JLINK_SetBPEx(Addr = 0x10000000, Type = 0xFFFFFFF2)  returns 0x00000011 (0000ms, 0961ms total)
T4838 001:593 JLINK_Go() -- CPU_WriteMem(4 bytes @ 0xE0002000) (0003ms, 0964ms total)
T4838 001:596 JLINK_IsHalted()  returns FALSE (0001ms, 0965ms total)
T4838 001:612 JLINK_IsHalted()  returns FALSE (0000ms, 0964ms total)
T4838 001:614 JLINK_IsHalted()  returns FALSE (0000ms, 0964ms total)
T4838 001:616 JLINK_IsHalted()  returns FALSE (0000ms, 0964ms total)
T4838 001:618 JLINK_IsHalted()  returns FALSE (0000ms, 0964ms total)
T4838 001:620 JLINK_IsHalted()  returns FALSE (0000ms, 0964ms total)
